T4FE0 000:033.842   SEGGER J-Link V7.96b Log File
T4FE0 000:033.994   DLL Compiled: Mar 20 2024 16:53:15
T4FE0 000:034.002   Logging started @ 2024-11-17 10:18
T4FE0 000:034.009   Process: C:\Keil_v5\UV4\UV4.exe
T4FE0 000:034.019 - 34.016ms
T4FE0 000:034.031 JLINK_SetWarnOutHandler(...)
T4FE0 000:034.039 - 0.009ms
T4FE0 000:034.048 JLINK_OpenEx(...)
T4FE0 000:035.434   Firmware: J-Link ARM V8 compiled Nov 28 2014 13:44:46
T4FE0 000:036.012   Firmware: J-Link ARM V8 compiled Nov 28 2014 13:44:46
T4FE0 000:038.192   Hardware: V8.00
T4FE0 000:038.206   S/N: 17935099
T4FE0 000:038.217   OEM: SEGGER
T4FE0 000:038.227   Feature(s): RDI,FlashDL,FlashBP,JFlash
T4FE0 000:038.827   Bootloader: (Could not read)
T4FE0 000:039.732   TELNET listener socket opened on port 19021
T4FE0 000:039.880   WEBSRV WEBSRV_Init(): Starting webserver thread(s)
T4FE0 000:040.019   WEBSRV Webserver running on local port 19080
T4FE0 000:040.142   Looking for J-Link GUI Server exe at: C:\Keil_v5\ARM\Segger\JLinkGUIServer.exe
T4FE0 000:040.245   Looking for J-Link GUI Server exe at: D:\SogouExplorer\JLink_V796b\JLinkGUIServer.exe
T4FE0 000:040.263   Forking J-Link GUI Server: D:\SogouExplorer\JLink_V796b\JLinkGUIServer.exe
T4FE0 000:041.897   J-Link GUI Server info: "J-Link GUI server V7.96b "
T4FE0 000:042.210 - 8.155ms returns "O.K."
T4FE0 000:042.260 JLINK_GetEmuCaps()
T4FE0 000:042.271 - 0.022ms returns 0xB9FF7BBF
T4FE0 000:042.283 JLINK_TIF_GetAvailable(...)
T4FE0 000:042.448 - 0.164ms
T4FE0 000:042.465 JLINK_SetErrorOutHandler(...)
T4FE0 000:042.473 - 0.007ms
T4FE0 000:042.498 JLINK_ExecCommand("ProjectFile = "C:\Users\CRJ\Desktop\STM32_project\poorguy\MDK-ARM\JLinkSettings.ini"", ...). 
T4FE0 000:055.995   Ref file found at: C:\Keil_v5\ARM\Segger\JLinkDevices.ref
T4FE0 000:056.073   REF file references invalid XML file: D:\SogouExplorer\JLink_V796b\JLinkDevices.xml
T4FE0 000:058.675   Device "STM32F405RG" selected.
T4FE0 000:059.149 - 16.653ms returns 0x00
T4FE0 000:059.205 JLINK_ExecCommand("Device = STM32F405RGTx", ...). 
T4FE0 000:059.785   Device "STM32F405RG" selected.
T4FE0 000:060.072 - 0.856ms returns 0x00
T4FE0 000:060.101 JLINK_ExecCommand("DisableConnectionTimeout", ...). 
T4FE0 000:060.113 - 0.002ms returns 0x01
T4FE0 000:060.136 JLINK_GetHardwareVersion()
T4FE0 000:060.147 - 0.007ms returns 80000
T4FE0 000:060.156 JLINK_GetDLLVersion()
T4FE0 000:060.163 - 0.007ms returns 79602
T4FE0 000:060.172 JLINK_GetOEMString(...)
T4FE0 000:060.181 JLINK_GetFirmwareString(...)
T4FE0 000:060.188 - 0.006ms
T4FE0 000:060.212 JLINK_GetDLLVersion()
T4FE0 000:060.219 - 0.007ms returns 79602
T4FE0 000:060.228 JLINK_GetCompileDateTime()
T4FE0 000:060.234 - 0.006ms
T4FE0 000:060.280 JLINK_GetFirmwareString(...)
T4FE0 000:060.288 - 0.008ms
T4FE0 000:060.302 JLINK_GetHardwareVersion()
T4FE0 000:060.309 - 0.006ms returns 80000
T4FE0 000:060.322 JLINK_GetSN()
T4FE0 000:060.329 - 0.006ms returns 17935099
T4FE0 000:060.342 JLINK_GetOEMString(...)
T4FE0 000:060.361 JLINK_TIF_Select(JLINKARM_TIF_SWD)
T4FE0 000:061.032 - 0.671ms returns 0x00
T4FE0 000:061.064 JLINK_HasError()
T4FE0 000:061.082 JLINK_SetSpeed(5000)
T4FE0 000:061.158 - 0.078ms
T4FE0 000:061.186 JLINK_GetId()
T4FE0 000:061.439   InitTarget() start
T4FE0 000:061.455    J-Link Script File: Executing InitTarget()
T4FE0 000:061.719   SWD selected. Executing JTAG -> SWD switching sequence.
T4FE0 000:065.236   DAP initialized successfully.
T4FE0 000:077.945   InitTarget() end - Took 16.4ms
T4FE0 000:078.513   Found SW-DP with ID 0x2BA01477
T4FE0 000:081.977   Old FW that does not support reading DPIDR via DAP jobs
T4FE0 000:085.762   DPv0 detected
T4FE0 000:085.784   CoreSight SoC-400 or earlier
T4FE0 000:085.799   Scanning AP map to find all available APs
T4FE0 000:088.461   AP[1]: Stopped AP scan as end of AP map has been reached
T4FE0 000:088.485   AP[0]: AHB-AP (IDR: 0x24770011)
T4FE0 000:088.500   Iterating through AP map to find AHB-AP to use
T4FE0 000:092.438   AP[0]: Core found
T4FE0 000:092.458   AP[0]: AHB-AP ROM base: 0xE00FF000
T4FE0 000:094.532   CPUID register: 0x410FC241. Implementer code: 0x41 (ARM)
T4FE0 000:094.610   Found Cortex-M4 r0p1, Little endian.
T4FE0 000:094.959   -- Max. mem block: 0x00000900
T4FE0 000:095.454   CPU_ReadMem(4 bytes @ 0xE000EDF0)
T4FE0 000:095.843   CPU_ReadMem(4 bytes @ 0xE0002000)
T4FE0 000:096.210   FPUnit: 6 code (BP) slots and 2 literal slots
T4FE0 000:096.225   CPU_ReadMem(4 bytes @ 0xE000EDFC)
T4FE0 000:096.604   CPU_WriteMem(4 bytes @ 0xE000EDFC)
T4FE0 000:096.982   CPU_ReadMem(4 bytes @ 0xE0001000)
T4FE0 000:097.335   CPU_WriteMem(4 bytes @ 0xE0001000)
T4FE0 000:097.711   CPU_ReadMem(4 bytes @ 0xE000ED88)
T4FE0 000:098.063   CPU_WriteMem(4 bytes @ 0xE000ED88)
T4FE0 000:098.471   CPU_ReadMem(4 bytes @ 0xE000ED88)
T4FE0 000:098.843   CPU_WriteMem(4 bytes @ 0xE000ED88)
T4FE0 000:099.265   CoreSight components:
T4FE0 000:099.283   ROMTbl[0] @ E00FF000
T4FE0 000:099.295   CPU_ReadMem(64 bytes @ 0xE00FF000)
T4FE0 000:100.168   CPU_ReadMem(32 bytes @ 0xE000EFE0)
T4FE0 000:100.719   [0][0]: E000E000 CID B105E00D PID 000BB00C SCS-M7
T4FE0 000:100.734   CPU_ReadMem(32 bytes @ 0xE0001FE0)
T4FE0 000:101.427   [0][1]: E0001000 CID B105E00D PID 003BB002 DWT
T4FE0 000:101.442   CPU_ReadMem(32 bytes @ 0xE0002FE0)
T4FE0 000:102.102   [0][2]: E0002000 CID B105E00D PID 002BB003 FPB
T4FE0 000:102.116   CPU_ReadMem(32 bytes @ 0xE0000FE0)
T4FE0 000:102.731   [0][3]: E0000000 CID B105E00D PID 003BB001 ITM
T4FE0 000:102.760   CPU_ReadMem(32 bytes @ 0xE0040FE0)
T4FE0 000:103.390   [0][4]: E0040000 CID B105900D PID 000BB9A1 TPIU
T4FE0 000:103.407   CPU_ReadMem(32 bytes @ 0xE0041FE0)
T4FE0 000:104.031   [0][5]: E0041000 CID B105900D PID 000BB925 ETM
T4FE0 000:104.530 - 43.343ms returns 0x2BA01477
T4FE0 000:104.551 JLINK_GetDLLVersion()
T4FE0 000:104.558 - 0.007ms returns 79602
T4FE0 000:104.568 JLINK_CORE_GetFound()
T4FE0 000:104.575 - 0.007ms returns 0xE0000FF
T4FE0 000:104.586 JLINK_GetDebugInfo(0x100 = JLINKARM_ROM_TABLE_ADDR_INDEX)
T4FE0 000:104.594   Value=0xE00FF000
T4FE0 000:104.605 - 0.018ms returns 0
T4FE0 000:104.624 JLINK_GetDebugInfo(0x100 = JLINKARM_ROM_TABLE_ADDR_INDEX)
T4FE0 000:104.632   Value=0xE00FF000
T4FE0 000:104.642 - 0.018ms returns 0
T4FE0 000:104.719 JLINK_GetDebugInfo(0x101 = JLINKARM_DEBUG_INFO_ETM_ADDR_INDEX)
T4FE0 000:104.732   Value=0xE0041000
T4FE0 000:104.743 - 0.023ms returns 0
T4FE0 000:104.757 JLINK_ReadMemEx(0xE0041FD0, 0x20 Bytes, Flags = 0x02000004)
T4FE0 000:104.778   CPU_ReadMem(32 bytes @ 0xE0041FD0)
T4FE0 000:105.423   Data:  04 00 00 00 00 00 00 00 00 00 00 00 00 00 00 00 ...
T4FE0 000:105.438 - 0.681ms returns 32 (0x20)
T4FE0 000:105.450 JLINK_GetDebugInfo(0x102 = JLINKARM_DEBUG_INFO_MTB_ADDR_INDEX)
T4FE0 000:105.457   Value=0x00000000
T4FE0 000:105.467 - 0.017ms returns 0
T4FE0 000:105.477 JLINK_GetDebugInfo(0x103 = JLINKARM_DEBUG_INFO_TPIU_ADDR_INDEX)
T4FE0 000:105.483   Value=0xE0040000
T4FE0 000:105.493 - 0.016ms returns 0
T4FE0 000:105.502 JLINK_GetDebugInfo(0x104 = JLINKARM_DEBUG_INFO_ITM_ADDR_INDEX)
T4FE0 000:105.509   Value=0xE0000000
T4FE0 000:105.519 - 0.016ms returns 0
T4FE0 000:105.528 JLINK_GetDebugInfo(0x105 = JLINKARM_DEBUG_INFO_DWT_ADDR_INDEX)
T4FE0 000:105.534   Value=0xE0001000
T4FE0 000:105.544 - 0.016ms returns 0
T4FE0 000:105.553 JLINK_GetDebugInfo(0x106 = JLINKARM_DEBUG_INFO_FPB_ADDR_INDEX)
T4FE0 000:105.560   Value=0xE0002000
T4FE0 000:105.569 - 0.016ms returns 0
T4FE0 000:105.578 JLINK_GetDebugInfo(0x107 = JLINKARM_DEBUG_INFO_NVIC_ADDR_INDEX)
T4FE0 000:105.585   Value=0xE000E000
T4FE0 000:105.595 - 0.016ms returns 0
T4FE0 000:105.604 JLINK_GetDebugInfo(0x10C = JLINKARM_DEBUG_INFO_DBG_ADDR_INDEX)
T4FE0 000:105.610   Value=0xE000EDF0
T4FE0 000:105.620 - 0.016ms returns 0
T4FE0 000:105.629 JLINK_GetDebugInfo(0x01 = Unknown)
T4FE0 000:105.636   Value=0x00000001
T4FE0 000:105.645 - 0.016ms returns 0
T4FE0 000:105.655 JLINK_ReadMemU32(0xE000ED00, 0x1 Items)
T4FE0 000:105.665   CPU_ReadMem(4 bytes @ 0xE000ED00)
T4FE0 000:106.040   Data:  41 C2 0F 41
T4FE0 000:106.055   Debug reg: CPUID
T4FE0 000:106.066 - 0.411ms returns 1 (0x1)
T4FE0 000:106.082 JLINK_GetDebugInfo(0x10F = JLINKARM_DEBUG_INFO_HAS_CORTEX_M_SECURITY_EXT_INDEX)
T4FE0 000:106.089   Value=0x00000000
T4FE0 000:106.100 - 0.018ms returns 0
T4FE0 000:106.109 JLINK_HasError()
T4FE0 000:106.119 JLINK_SetResetType(JLINKARM_CM3_RESET_TYPE_NORMAL)
T4FE0 000:106.126 - 0.007ms returns JLINKARM_CM3_RESET_TYPE_NORMAL
T4FE0 000:106.135 JLINK_Reset()
T4FE0 000:106.150   CPU is running
T4FE0 000:106.161   CPU_WriteMem(4 bytes @ 0xE000EDF0)
T4FE0 000:106.564   CPU is running
T4FE0 000:106.580   CPU_WriteMem(4 bytes @ 0xE000EDFC)
T4FE0 000:107.006   Reset: Halt core after reset via DEMCR.VC_CORERESET.
T4FE0 000:107.577   Reset: Reset device via AIRCR.SYSRESETREQ.
T4FE0 000:107.593   CPU is running
T4FE0 000:107.605   CPU_WriteMem(4 bytes @ 0xE000ED0C)
T4FE0 000:162.103   CPU_ReadMem(4 bytes @ 0xE000EDF0)
T4FE0 000:162.630   CPU_ReadMem(4 bytes @ 0xE000EDF0)
T4FE0 000:165.547   CPU_WriteMem(4 bytes @ 0xE000EDFC)
T4FE0 000:171.643   CPU_ReadMem(4 bytes @ 0xE000EDF0)
T4FE0 000:174.399   CPU_WriteMem(4 bytes @ 0xE0002000)
T4FE0 000:174.793   CPU_ReadMem(4 bytes @ 0xE000EDFC)
T4FE0 000:175.115   CPU_ReadMem(4 bytes @ 0xE0001000)
T4FE0 000:175.458 - 69.322ms
T4FE0 000:175.478 JLINK_HasError()
T4FE0 000:175.494 JLINK_ReadReg(R15 (PC))
T4FE0 000:175.504 - 0.013ms returns 0x0800032C
T4FE0 000:175.529 JLINK_ReadReg(XPSR)
T4FE0 000:175.549 - 0.021ms returns 0x01000000
T4FE0 000:175.594 JLINK_Halt()
T4FE0 000:175.621 - 0.027ms returns 0x00
T4FE0 000:175.632 JLINK_ReadMemU32(0xE000EDF0, 0x1 Items)
T4FE0 000:175.644   CPU_ReadMem(4 bytes @ 0xE000EDF0)
T4FE0 000:176.001   Data:  03 00 03 00
T4FE0 000:176.015   Debug reg: DHCSR
T4FE0 000:176.026 - 0.394ms returns 1 (0x1)
T4FE0 000:176.044 JLINK_WriteU32_64(0xE000EDF0, 0xA05F0003)
T4FE0 000:176.051   Debug reg: DHCSR
T4FE0 000:176.287   CPU_WriteMem(4 bytes @ 0xE000EDF0)
T4FE0 000:176.659 - 0.617ms returns 0 (0x00000000)
T4FE0 000:176.687 JLINK_WriteU32_64(0xE000EDFC, 0x01000000)
T4FE0 000:176.707   Debug reg: DEMCR
T4FE0 000:176.720   CPU_WriteMem(4 bytes @ 0xE000EDFC)
T4FE0 000:177.090 - 0.403ms returns 0 (0x00000000)
T4FE0 000:177.159 JLINK_GetHWStatus(...)
T4FE0 000:177.316 - 0.157ms returns 0
T4FE0 000:177.350 JLINK_GetNumBPUnits(Type = 0xFFFFFF00)
T4FE0 000:177.358 - 0.008ms returns 0x06
T4FE0 000:177.368 JLINK_GetNumBPUnits(Type = 0xF0)
T4FE0 000:177.375 - 0.007ms returns 0x2000
T4FE0 000:177.384 JLINK_GetNumWPUnits()
T4FE0 000:177.392 - 0.007ms returns 4
T4FE0 000:177.412 JLINK_GetSpeed()
T4FE0 000:177.420 - 0.007ms returns 4000
T4FE0 000:177.437 JLINK_ReadMemU32(0xE000E004, 0x1 Items)
T4FE0 000:177.447   CPU_ReadMem(4 bytes @ 0xE000E004)
T4FE0 000:177.839   Data:  02 00 00 00
T4FE0 000:177.853 - 0.416ms returns 1 (0x1)
T4FE0 000:177.865 JLINK_ReadMemU32(0xE000E004, 0x1 Items)
T4FE0 000:177.875   CPU_ReadMem(4 bytes @ 0xE000E004)
T4FE0 000:178.195   Data:  02 00 00 00
T4FE0 000:178.209 - 0.344ms returns 1 (0x1)
T4FE0 000:178.221 JLINK_WriteMemEx(0xE0001000, 0x0000001C Bytes, Flags = 0x02000004)
T4FE0 000:178.229   Data:  01 00 00 00 00 00 00 00 00 00 00 00 00 00 00 00 ...
T4FE0 000:178.244   CPU_WriteMem(28 bytes @ 0xE0001000)
T4FE0 000:178.735 - 0.514ms returns 0x1C
T4FE0 000:178.764 JLINK_HasError()
T4FE0 000:178.787 JLINK_ReadReg(R15 (PC))
T4FE0 000:178.796 - 0.008ms returns 0x0800032C
T4FE0 000:178.805 JLINK_ReadReg(XPSR)
T4FE0 000:178.812 - 0.007ms returns 0x01000000
T4FE0 000:182.147 JLINK_SWO_Control(JLINKARM_SWO_CMD_GET_SPEED_INFO, ...)
T4FE0 000:182.483 - 0.336ms returns 0x00
T4FE0 000:182.500 JLINK_SWO_DisableTarget()
T4FE0 000:182.511   JLINK_ReadMemU32(0xE0000E00, 0x1 Items)
T4FE0 000:182.523     CPU_ReadMem(4 bytes @ 0xE0000E00)
T4FE0 000:182.945     Data:  FF FF FF FF
T4FE0 000:182.960     Debug reg: ITM_TER
T4FE0 000:182.971   - 0.460ms returns 1 (0x1)
T4FE0 000:182.982   JLINK_WriteU32_64(0xE0000E00, 0x00000000)
T4FE0 000:182.990     Debug reg: ITM_TER
T4FE0 000:183.003   - 0.020ms returns 0 (0x00000000)
T4FE0 000:183.012   JLINK_WriteU32_64(0xE0000E80, 0x00000000)
T4FE0 000:183.023     Debug reg: ITM_TCR
T4FE0 000:183.037   - 0.024ms returns 0 (0x00000000)
T4FE0 000:183.048 - 0.547ms returns 0x00
T4FE0 000:183.059 JLINK_SWO_EnableTarget(CPUSpeed = 168000000, SWOSpeed = 6000000, Mode = 0)
T4FE0 000:183.077   SWO_EnableTarget() start
T4FE0 000:183.088    J-Link Script File: Executing SWO_EnableTarget()
T4FE0 000:183.098   CPU_ReadMem(4 bytes @ 0xE0042004)
T4FE0 000:183.488   CPU_WriteMem(4 bytes @ 0xE0042004)
T4FE0 000:183.879   SWO_EnableTarget() end - Took 781us
T4FE0 000:184.243   JLINK_ReadMemU32(0xE000EDFC, 0x1 Items)
T4FE0 000:184.258     Data:  00 00 00 01
T4FE0 000:184.268     Debug reg: DEMCR
T4FE0 000:184.279   - 0.036ms returns 1 (0x1)
T4FE0 000:184.289   JLINK_WriteU32_64(0xE0000FB0, 0xC5ACCE55)
T4FE0 000:184.296     Debug reg: ITM_LOCKACCESS
T4FE0 000:184.308     CPU_WriteMem(4 bytes @ 0xE0000FB0)
T4FE0 000:184.682   - 0.392ms returns 0 (0x00000000)
T4FE0 000:184.697   JLINK_ReadMemU32(0xE0000E00, 0x1 Items)
T4FE0 000:184.707     Data:  00 00 00 00
T4FE0 000:184.718     Debug reg: ITM_TER
T4FE0 000:184.728   - 0.031ms returns 1 (0x1)
T4FE0 000:184.738   JLINK_WriteU32_64(0xE0000E00, 0x00000000)
T4FE0 000:184.746     Debug reg: ITM_TER
T4FE0 000:184.757   - 0.019ms returns 0 (0x00000000)
T4FE0 000:184.766   CPU_WriteMem(4 bytes @ 0xE0000E80)
T4FE0 000:185.179   CPU_ReadMem(4 bytes @ 0xE0000E80)
T4FE0 000:185.532   JLINK_WriteU32_64(0xE0000E80, 0x00000000)
T4FE0 000:185.544     Debug reg: ITM_TCR
T4FE0 000:185.557   - 0.025ms returns 0 (0x00000000)
T4FE0 000:185.601    -- UART
T4FE0 000:185.612    -- 6000000bps
T4FE0 000:186.358   JLINK_WriteU32_64(0xE00400F0, 0x00000002)
T4FE0 000:186.370     Debug reg: TPIU_SPPR
T4FE0 000:186.383   - 0.025ms returns 0 (0x00000000)
T4FE0 000:186.393   JLINK_WriteU32_64(0xE0040010, 0x0000001B)
T4FE0 000:186.400     Debug reg: TPIU_ACPR
T4FE0 000:186.411   - 0.017ms returns 0 (0x00000000)
T4FE0 000:186.420   JLINK_WriteU32_64(0xE0000E40, 0x00000000)
T4FE0 000:186.427     Debug reg: ITM_TPR
T4FE0 000:186.438   - 0.017ms returns 0 (0x00000000)
T4FE0 000:186.447   JLINK_WriteU32_64(0xE0000FB0, 0xC5ACCE55)
T4FE0 000:186.454     Debug reg: ITM_LOCKACCESS
T4FE0 000:186.464   - 0.017ms returns 0 (0x00000000)
T4FE0 000:186.474   JLINK_WriteU32_64(0xE0000E80, 0x0001000D)
T4FE0 000:186.480     Debug reg: ITM_TCR
T4FE0 000:186.491   - 0.017ms returns 0 (0x00000000)
T4FE0 000:186.499   CPU_WriteMem(4 bytes @ 0xE0000E00)
T4FE0 000:186.509   CPU_WriteMem(4 bytes @ 0xE0000E40)
T4FE0 000:186.519   CPU_WriteMem(4 bytes @ 0xE0000E80)
T4FE0 000:186.530   CPU_WriteMem(4 bytes @ 0xE0040010)
T4FE0 000:186.540   CPU_WriteMem(4 bytes @ 0xE00400F0)
T4FE0 000:188.088   CPU_ReadMem(4 bytes @ 0xE0001004)
T4FE0 000:188.483   CPU_WriteMem(4 bytes @ 0xE0001004)
T4FE0 000:188.901   CPU_WriteMem(4 bytes @ 0xE0001004)
T4FE0 000:189.305   CPU_WriteMem(4 bytes @ 0xE0001004)
T4FE0 000:189.726   CPU_ReadMem(4 bytes @ 0xE0001000)
T4FE0 000:190.180   JLINK_WriteU32_64(0xE0040304, 0x00000100)
T4FE0 000:190.191     Debug reg: TPIU_FFCR
T4FE0 000:190.203   - 0.023ms returns 0 (0x00000000)
T4FE0 000:190.213   JLINK_WriteU32_64(0xE0000E00, 0xFFFFFFFF)
T4FE0 000:190.220     Debug reg: ITM_TER
T4FE0 000:190.232   - 0.018ms returns 0 (0x00000000)
T4FE0 000:190.239 - 7.180ms returns 0x00
T4FE0 000:190.250 JLINK_WriteU32_64(0xE0040010, 0x0000001B)
T4FE0 000:190.257   Debug reg: TPIU_ACPR
T4FE0 000:190.270 - 0.020ms returns 0 (0x00000000)
T4FE0 000:190.280 JLINK_WriteU32_64(0xE00400F0, 0x00000002)
T4FE0 000:190.287   Debug reg: TPIU_SPPR
T4FE0 000:190.299 - 0.018ms returns 0 (0x00000000)
T4FE0 000:190.308 JLINK_WriteU32_64(0xE0040304, 0x00000000)
T4FE0 000:190.315   Debug reg: TPIU_FFCR
T4FE0 000:190.327 - 0.018ms returns 0 (0x00000000)
T4FE0 000:190.336 JLINK_WriteU32_64(0xE0000FB0, 0xC5ACCE55)
T4FE0 000:190.343   Debug reg: ITM_LOCKACCESS
T4FE0 000:190.355 - 0.018ms returns 0 (0x00000000)
T4FE0 000:190.364 JLINK_WriteU32_64(0xE0000E80, 0x0001000D)
T4FE0 000:190.372   Debug reg: ITM_TCR
T4FE0 000:190.436 - 0.071ms returns 0 (0x00000000)
T4FE0 000:190.446 JLINK_WriteU32_64(0xE0000E00, 0xFFFFFFFF)
T4FE0 000:190.453   Debug reg: ITM_TER
T4FE0 000:190.465 - 0.018ms returns 0 (0x00000000)
T4FE0 000:190.474 JLINK_WriteU32_64(0xE0000E40, 0x00000008)
T4FE0 000:190.481   Debug reg: ITM_TPR
T4FE0 000:190.492 - 0.018ms returns 0 (0x00000000)
T4FE0 000:190.502 JLINK_WriteU32_64(0xE0001000, 0x00010A1F)
T4FE0 000:190.509   Debug reg: DWT_CTRL
T4FE0 000:190.521   CPU_WriteMem(4 bytes @ 0xE0001000)
T4FE0 000:190.933 - 0.430ms returns 0 (0x00000000)
T4FE0 000:211.419 JLINK_ReadMemEx(0xE0001004, 0x4 Bytes, Flags = 0x02000000)
T4FE0 000:211.463   Data:  00 00 00 00
T4FE0 000:211.474   Debug reg: DWT_CYCCNT
T4FE0 000:211.484 - 0.066ms returns 4 (0x4)
T4FE0 000:261.384 JLINK_WriteMemEx(0x08000000, 0x00001000 Bytes, Flags = 0x02000000)
T4FE0 000:261.408   Data:  D0 81 00 20 2D 03 00 08 43 4A 00 08 57 40 00 08 ...
T4FE0 000:261.676   completely In flash
T4FE0 000:261.689 - 0.306ms returns 0x1000
T4FE0 000:262.294 JLINK_WriteMemEx(0x08001000, 0x00001000 Bytes, Flags = 0x02000000)
T4FE0 000:262.309   Data:  30 BD 6D 0D 15 60 AF E7 C1 68 41 F0 20 01 C1 60 ...
T4FE0 000:262.353   completely In flash
T4FE0 000:262.365 - 0.071ms returns 0x1000
T4FE0 000:262.798 JLINK_WriteMemEx(0x08002000, 0x00001000 Bytes, Flags = 0x02000000)
T4FE0 000:262.812   Data:  07 D0 05 EB 46 11 C1 F8 08 9B 31 46 20 46 02 F0 ...
T4FE0 000:262.829   completely In flash
T4FE0 000:262.840 - 0.041ms returns 0x1000
T4FE0 000:263.142 JLINK_WriteMemEx(0x08003000, 0x00001000 Bytes, Flags = 0x02000000)
T4FE0 000:263.152   Data:  03 D0 94 F8 3D 00 10 B1 07 E0 01 20 10 BD 00 20 ...
T4FE0 000:263.168   completely In flash
T4FE0 000:263.179 - 0.037ms returns 0x1000
T4FE0 000:263.825 JLINK_WriteMemEx(0x08004000, 0x00001000 Bytes, Flags = 0x02000000)
T4FE0 000:263.853   Data:  FB E7 02 20 F9 E7 00 00 B3 51 00 08 F5 51 00 08 ...
T4FE0 000:263.900   completely In flash
T4FE0 000:263.928 - 0.103ms returns 0x1000
T4FE0 000:266.279 JLINK_WriteMemEx(0x08005000, 0x00001000 Bytes, Flags = 0x02000000)
T4FE0 000:266.306   Data:  02 62 F0 BD 00 00 01 40 00 04 01 40 30 B5 02 6A ...
T4FE0 000:266.319   completely In flash
T4FE0 000:266.330 - 0.051ms returns 0x1000
T4FE0 000:266.723 JLINK_WriteMemEx(0x08006000, 0x00001000 Bytes, Flags = 0x02000000)
T4FE0 000:266.735   Data:  70 47 10 B5 D0 F8 C8 02 FC F7 10 FB BD E8 10 40 ...
T4FE0 000:266.755   completely In flash
T4FE0 000:266.766 - 0.043ms returns 0x1000
T4FE0 000:267.074 JLINK_WriteMemEx(0x08007000, 0x00001000 Bytes, Flags = 0x02000000)
T4FE0 000:267.085   Data:  00 D3 CE FE 40 77 1B 00 C0 5B B3 FE C0 91 21 00 ...
T4FE0 000:267.096   completely In flash
T4FE0 000:267.107 - 0.033ms returns 0x1000
T4FE0 000:267.799 JLINK_WriteMemEx(0x08008000, 0x00001000 Bytes, Flags = 0x02000000)
T4FE0 000:267.811   Data:  00 10 01 40 74 30 00 20 00 14 01 40 BA 30 00 20 ...
T4FE0 000:267.829   completely In flash
T4FE0 000:267.840 - 0.041ms returns 0x1000
T4FE0 000:268.162 JLINK_WriteMemEx(0x08009000, 0x00001000 Bytes, Flags = 0x02000000)
T4FE0 000:268.173   Data:  F9 FC E0 6A 2A 69 08 FA 00 F1 11 43 29 61 00 EB ...
T4FE0 000:268.184   completely In flash
T4FE0 000:268.195 - 0.032ms returns 0x1000
T4FE0 000:268.493 JLINK_WriteMemEx(0x0800A000, 0x00000064 Bytes, Flags = 0x02000000)
T4FE0 000:268.504   Data:  04 01 7C 16 02 40 AB 03 41 10 09 05 53 08 06 58 ...
T4FE0 000:268.514   completely In flash
T4FE0 000:268.525 - 0.031ms returns 0x64
T4FE0 000:324.344 JLINK_HasError()
T4FE0 000:324.370 JLINK_SetResetType(JLINKARM_CM3_RESET_TYPE_NORMAL)
T4FE0 000:324.379 - 0.008ms returns JLINKARM_CM3_RESET_TYPE_NORMAL
T4FE0 000:324.388 JLINK_Reset()
T4FE0 000:324.652   Old firmware which does not support pausing periodic actions during flash download
T4FE0 000:324.671   CPU_ReadMem(4 bytes @ 0xE000ED90)
T4FE0 000:325.095   CPU_ReadMem(4 bytes @ 0xE000ED94)
T4FE0 000:325.543    -- --------------------------------------
T4FE0 000:325.570    -- Flash bank @ 0x08000000: Default: L2 verify disabled because algorithm performs L1 verify
T4FE0 000:325.599    -- Start of determining dirty areas in flash cache
T4FE0 000:325.626    -- Filling invalid ranges in sector buffer (flash cache) for sector @ 0x08000000 if necessary
T4FE0 000:325.645    -- Filling invalid ranges in sector buffer (flash cache) for sector @ 0x08004000 if necessary
T4FE0 000:325.664    -- Filling invalid ranges in sector buffer (flash cache) for sector @ 0x08008000 if necessary
T4FE0 000:325.896    -- End of determining dirty areas
T4FE0 000:325.924    -- Start of preparing flash programming
T4FE0 000:325.954    -- Calculating RAM usage
T4FE0 000:326.101    -- RAM usage = 3876 Bytes
T4FE0 000:326.112    -- Preserving CPU registers
T4FE0 000:326.181    -- Preparing target
T4FE0 000:329.480    -- Preserving target RAM temporarily used for programming
T4FE0 000:356.916    -- Downloading RAMCode
T4FE0 000:375.474    -- Preparing RAMCode
T4FE0 000:383.268    -- End of preparing flash programming
T4FE0 000:508.561    -- CPU is running at 110000 kHz.
T4FE0 000:508.590    -- Start of comparing flash
T4FE0 000:508.603    -- CRC check was estimated as fastest method
T4FE0 000:616.074    -- Comparing range 0x8000000 - 0x800BFFF (3 Sectors, 48 KB), using multi-block CRC calculation
T4FE0 000:635.074    -- All CRCs match
T4FE0 000:635.329    -- Comparing range 0x8000000 - 0x800BFFF (3 Sectors, 48 KB), using alternative multi-block CRC calculation
T4FE0 000:649.015    -- All CRCs match
T4FE0 000:649.042    -- End of comparing flash
T4FE0 000:649.054    -- Start of erasing sectors
T4FE0 000:649.065    -- End of erasing sectors
T4FE0 000:649.076    -- Start of flash programming
T4FE0 000:649.087    -- End of flash programming
T4FE0 000:649.098    -- Start of restoring
T4FE0 000:649.109    -- Restoring RAMCode
T4FE0 000:652.778    -- Restoring target memory
T4FE0 000:675.929    -- Restore target
T4FE0 000:677.957    -- Restoring CPU registers
T4FE0 000:677.988    -- End of restoring
T4FE0 000:678.023    -- Bank 0 @ 0x08000000: Skipped. Contents already match
T4FE0 000:678.035    -- Bank 0 @ 0x08000000: Skipped. Contents already match
T4FE0 000:680.166   CPU_WriteMem(4 bytes @ 0xE0002000)
T4FE0 000:680.591   CPU_ReadMem(4 bytes @ 0xE0002008)
T4FE0 000:681.046   CPU_WriteMem(4 bytes @ 0xE000EDF4)
T4FE0 000:681.468   CPU_ReadMem(4 bytes @ 0xE000EDF8)
T4FE0 000:681.915   CPU_WriteMem(4 bytes @ 0xE0002008)
T4FE0 000:682.282   CPU_WriteMem(4 bytes @ 0xE000EDF8)
T4FE0 000:682.755   CPU_WriteMem(4 bytes @ 0xE000EDF4)
T4FE0 000:683.303   CPU_WriteMem(4 bytes @ 0xE000EDF0)
T4FE0 000:683.702   CPU_WriteMem(4 bytes @ 0xE000EDF0)
T4FE0 000:684.087   CPU_ReadMem(4 bytes @ 0xE000EDF0)
T4FE0 000:684.481   CPU_WriteMem(4 bytes @ 0xE000EDF0)
T4FE0 000:684.857   CPU_WriteMem(4 bytes @ 0xE0002008)
T4FE0 000:685.291   CPU_WriteMem(4 bytes @ 0xE000EDF8)
T4FE0 000:685.663   CPU_WriteMem(4 bytes @ 0xE000EDF4)
T4FE0 000:686.231   CPU_WriteMem(4 bytes @ 0xE000EDF0)
T4FE0 000:686.643   CPU_WriteMem(4 bytes @ 0xE000EDFC)
T4FE0 000:687.036   Reset: Halt core after reset via DEMCR.VC_CORERESET.
T4FE0 000:687.433   Reset: Reset device via AIRCR.SYSRESETREQ.
T4FE0 000:687.448   CPU_WriteMem(4 bytes @ 0xE000ED0C)
T4FE0 000:740.272   CPU_ReadMem(4 bytes @ 0xE000EDF0)
T4FE0 000:740.677   CPU_ReadMem(4 bytes @ 0xE000EDF0)
T4FE0 000:741.461   CPU_WriteMem(4 bytes @ 0xE000EDFC)
T4FE0 000:747.802   CPU_ReadMem(4 bytes @ 0xE000EDF0)
T4FE0 000:750.921   CPU_WriteMem(4 bytes @ 0xE0002000)
T4FE0 000:751.386   CPU_ReadMem(4 bytes @ 0xE000EDFC)
T4FE0 000:751.778   CPU_ReadMem(4 bytes @ 0xE0001000)
T4FE0 000:752.274 - 427.885ms
T4FE0 000:752.308 JLINK_WriteU32_64(0xE000EDFC, 0x01000000)
T4FE0 000:752.316   Debug reg: DEMCR
T4FE0 000:752.349   CPU_WriteMem(4 bytes @ 0xE000EDFC)
T4FE0 000:752.787 - 0.478ms returns 0 (0x00000000)
T4FE0 000:753.101 JLINK_HasError()
T4FE0 000:753.115 JLINK_ReadReg(R15 (PC))
T4FE0 000:753.124 - 0.008ms returns 0x0800032C
T4FE0 000:753.133 JLINK_ReadReg(XPSR)
T4FE0 000:753.141 - 0.007ms returns 0x01000000
T4FE0 000:759.957 JLINK_ReadMemEx(0x0800032C, 0x3C Bytes, Flags = 0x02000000)
T4FE0 000:759.974    -- Read from flash cache (60 bytes @ 0x0800032C)
T4FE0 000:759.985   Data:  09 48 80 47 09 48 00 47 FE E7 FE E7 FE E7 FE E7 ...
T4FE0 000:759.995 - 0.038ms returns 60 (0x3C)
T4FE0 000:760.004 JLINK_ReadMemEx(0x0800032C, 0x2 Bytes, Flags = 0x02000000)
T4FE0 000:760.011    -- Read from flash cache (2 bytes @ 0x0800032C)
T4FE0 000:760.021   Data:  09 48
T4FE0 000:760.031 - 0.027ms returns 2 (0x2)
T4FE0 000:760.115 JLINK_ReadMemEx(0x0800032E, 0x2 Bytes, Flags = 0x02000000)
T4FE0 000:760.123    -- Read from flash cache (2 bytes @ 0x0800032E)
T4FE0 000:760.132   Data:  80 47
T4FE0 000:760.142 - 0.027ms returns 2 (0x2)
T4FE0 000:760.157 JLINK_ReadMemEx(0x0800032E, 0x2 Bytes, Flags = 0x02000000)
T4FE0 000:760.164    -- Read from flash cache (2 bytes @ 0x0800032E)
T4FE0 000:760.174   Data:  80 47
T4FE0 000:760.183 - 0.026ms returns 2 (0x2)
T4FE0 000:760.192 JLINK_ReadMemEx(0x08000330, 0x3C Bytes, Flags = 0x02000000)
T4FE0 000:760.200    -- Read from flash cache (60 bytes @ 0x08000330)
T4FE0 000:760.209   Data:  09 48 00 47 FE E7 FE E7 FE E7 FE E7 FE E7 FE E7 ...
T4FE0 000:760.219 - 0.027ms returns 60 (0x3C)
T4FE0 000:760.228 JLINK_ReadMemEx(0x08000330, 0x2 Bytes, Flags = 0x02000000)
T4FE0 000:760.235    -- Read from flash cache (2 bytes @ 0x08000330)
T4FE0 000:760.245   Data:  09 48
T4FE0 000:760.255 - 0.026ms returns 2 (0x2)
T4FE0 000:977.455 JLINK_WriteU32_64(0xE0001008, 0x00000000)
T4FE0 000:977.480   Debug reg: DWT_CPICNT
T4FE0 000:977.500 - 0.045ms returns 0 (0x00000000)
T4FE0 000:977.510 JLINK_WriteU32_64(0xE000100C, 0x00000000)
T4FE0 000:977.517   Debug reg: DWT_EXCCNT
T4FE0 000:977.529 - 0.018ms returns 0 (0x00000000)
T4FE0 000:977.538 JLINK_WriteU32_64(0xE0001010, 0x00000000)
T4FE0 000:977.545   Debug reg: DWT_SLEEPCNT
T4FE0 000:977.556 - 0.017ms returns 0 (0x00000000)
T4FE0 000:977.565 JLINK_WriteU32_64(0xE0001014, 0x00000000)
T4FE0 000:977.572   Debug reg: DWT_LSUCNT
T4FE0 000:977.583 - 0.017ms returns 0 (0x00000000)
T4FE0 000:977.592 JLINK_WriteU32_64(0xE0001018, 0x00000000)
T4FE0 000:977.599   Debug reg: DWT_FOLDCNT
T4FE0 000:977.610 - 0.017ms returns 0 (0x00000000)
T4FE0 001:094.081 JLINK_ReadMemEx(0x40011000, 0x18 Bytes, Flags = 0x02000004)
T4FE0 001:094.113   CPU_ReadMem(24 bytes @ 0x40011000)
T4FE0 001:094.592   Data:  00 00 00 00 00 00 00 00 00 00 00 00 00 00 00 00 ...
T4FE0 001:094.613 - 0.531ms returns 24 (0x18)
T4FE0 001:094.664 JLINK_ReadMemEx(0x40011018, 0x4 Bytes, Flags = 0x02000004)
T4FE0 001:094.696   CPU_ReadMem(4 bytes @ 0x40011018)
T4FE0 001:095.125   Data:  00 00 00 00
T4FE0 001:095.143 - 0.478ms returns 4 (0x4)
T4FE0 003:592.751 JLINK_ReadMemEx(0x0800032C, 0x3C Bytes, Flags = 0x02000000)
T4FE0 003:592.778    -- Read from flash cache (60 bytes @ 0x0800032C)
T4FE0 003:592.790   Data:  09 48 80 47 09 48 00 47 FE E7 FE E7 FE E7 FE E7 ...
T4FE0 003:592.801 - 0.050ms returns 60 (0x3C)
T4FE0 003:592.811 JLINK_ReadMemEx(0x0800032C, 0x2 Bytes, Flags = 0x02000000)
T4FE0 003:592.818    -- Read from flash cache (2 bytes @ 0x0800032C)
T4FE0 003:592.829   Data:  09 48
T4FE0 003:592.840 - 0.028ms returns 2 (0x2)
T4FE0 003:592.850 JLINK_ReadMemEx(0x0800032E, 0x2 Bytes, Flags = 0x02000000)
T4FE0 003:592.857    -- Read from flash cache (2 bytes @ 0x0800032E)
T4FE0 003:592.867   Data:  80 47
T4FE0 003:592.877 - 0.027ms returns 2 (0x2)
T4FE0 003:592.892 JLINK_ReadMemEx(0x0800032E, 0x2 Bytes, Flags = 0x02000000)
T4FE0 003:592.900    -- Read from flash cache (2 bytes @ 0x0800032E)
T4FE0 003:592.910   Data:  80 47
T4FE0 003:592.920 - 0.028ms returns 2 (0x2)
T4FE0 003:592.930 JLINK_ReadMemEx(0x08000330, 0x3C Bytes, Flags = 0x02000000)
T4FE0 003:592.937    -- Read from flash cache (60 bytes @ 0x08000330)
T4FE0 003:592.948   Data:  09 48 00 47 FE E7 FE E7 FE E7 FE E7 FE E7 FE E7 ...
T4FE0 003:592.958 - 0.028ms returns 60 (0x3C)
T4FE0 003:592.968 JLINK_ReadMemEx(0x08000330, 0x2 Bytes, Flags = 0x02000000)
T4FE0 003:592.975    -- Read from flash cache (2 bytes @ 0x08000330)
T4FE0 003:592.991   Data:  09 48
T4FE0 003:593.001 - 0.033ms returns 2 (0x2)
T4FE0 003:593.013 JLINK_ReadMemEx(0x08000330, 0x3C Bytes, Flags = 0x02000000)
T4FE0 003:593.021    -- Read from flash cache (60 bytes @ 0x08000330)
T4FE0 003:593.032   Data:  09 48 00 47 FE E7 FE E7 FE E7 FE E7 FE E7 FE E7 ...
T4FE0 003:593.042 - 0.028ms returns 60 (0x3C)
T4FE0 003:593.051 JLINK_ReadMemEx(0x08000330, 0x2 Bytes, Flags = 0x02000000)
T4FE0 003:593.058    -- Read from flash cache (2 bytes @ 0x08000330)
T4FE0 003:593.068   Data:  09 48
T4FE0 003:593.078 - 0.027ms returns 2 (0x2)
T4FE0 003:593.088 JLINK_ReadMemEx(0x08000332, 0x2 Bytes, Flags = 0x02000000)
T4FE0 003:593.095    -- Read from flash cache (2 bytes @ 0x08000332)
T4FE0 003:593.105   Data:  00 47
T4FE0 003:593.115 - 0.027ms returns 2 (0x2)
T4FE0 003:990.546 JLINK_HasError()
T4FE0 003:990.565 JLINK_ReadReg(R0)
T4FE0 003:990.944 - 0.379ms returns 0x00000000
T4FE0 003:990.962 JLINK_ReadReg(R1)
T4FE0 003:990.970 - 0.007ms returns 0x00000000
T4FE0 003:990.978 JLINK_ReadReg(R2)
T4FE0 003:990.986 - 0.007ms returns 0x00000000
T4FE0 003:991.279 JLINK_ReadReg(R3)
T4FE0 003:991.290 - 0.011ms returns 0x00000000
T4FE0 003:991.300 JLINK_ReadReg(R4)
T4FE0 003:991.307 - 0.007ms returns 0x00000000
T4FE0 003:991.316 JLINK_ReadReg(R5)
T4FE0 003:991.323 - 0.006ms returns 0x00000000
T4FE0 003:991.332 JLINK_ReadReg(R6)
T4FE0 003:991.339 - 0.006ms returns 0x00000000
T4FE0 003:991.348 JLINK_ReadReg(R7)
T4FE0 003:991.355 - 0.006ms returns 0x00000000
T4FE0 003:991.364 JLINK_ReadReg(R8)
T4FE0 003:991.371 - 0.007ms returns 0x00000000
T4FE0 003:991.380 JLINK_ReadReg(R9)
T4FE0 003:991.387 - 0.006ms returns 0x00000000
T4FE0 003:991.395 JLINK_ReadReg(R10)
T4FE0 003:991.402 - 0.006ms returns 0x00000000
T4FE0 003:991.411 JLINK_ReadReg(R11)
T4FE0 003:991.418 - 0.006ms returns 0x00000000
T4FE0 003:991.427 JLINK_ReadReg(R12)
T4FE0 003:991.434 - 0.006ms returns 0x00000000
T4FE0 003:991.443 JLINK_ReadReg(R13 (SP))
T4FE0 003:991.450 - 0.007ms returns 0x200081D0
T4FE0 003:991.459 JLINK_ReadReg(R14)
T4FE0 003:991.466 - 0.006ms returns 0xFFFFFFFF
T4FE0 003:991.475 JLINK_ReadReg(R15 (PC))
T4FE0 003:991.482 - 0.007ms returns 0x0800032C
T4FE0 003:991.491 JLINK_ReadReg(XPSR)
T4FE0 003:991.498 - 0.007ms returns 0x01000000
T4FE0 003:991.507 JLINK_ReadReg(MSP)
T4FE0 003:991.514 - 0.006ms returns 0x200081D0
T4FE0 003:991.523 JLINK_ReadReg(PSP)
T4FE0 003:991.530 - 0.006ms returns 0x00000000
T4FE0 003:991.539 JLINK_ReadReg(CFBP)
T4FE0 003:991.546 - 0.006ms returns 0x00000000
T4FE0 003:991.555 JLINK_ReadReg(FPSCR)
T4FE0 003:995.006 - 3.451ms returns 0x00000000
T4FE0 003:995.022 JLINK_ReadReg(FPS0)
T4FE0 003:995.031 - 0.008ms returns 0x00000000
T4FE0 003:995.040 JLINK_ReadReg(FPS1)
T4FE0 003:995.048 - 0.007ms returns 0x00000000
T4FE0 003:995.056 JLINK_ReadReg(FPS2)
T4FE0 003:995.064 - 0.007ms returns 0x00000000
T4FE0 003:995.074 JLINK_ReadReg(FPS3)
T4FE0 003:995.082 - 0.007ms returns 0x00000000
T4FE0 003:995.090 JLINK_ReadReg(FPS4)
T4FE0 003:995.098 - 0.007ms returns 0x00000000
T4FE0 003:995.107 JLINK_ReadReg(FPS5)
T4FE0 003:995.114 - 0.007ms returns 0x00000000
T4FE0 003:995.124 JLINK_ReadReg(FPS6)
T4FE0 003:995.132 - 0.007ms returns 0x00000000
T4FE0 003:995.141 JLINK_ReadReg(FPS7)
T4FE0 003:995.148 - 0.007ms returns 0x00000000
T4FE0 003:995.157 JLINK_ReadReg(FPS8)
T4FE0 003:995.164 - 0.007ms returns 0x00000000
T4FE0 003:995.175 JLINK_ReadReg(FPS9)
T4FE0 003:995.182 - 0.007ms returns 0x00000000
T4FE0 003:995.192 JLINK_ReadReg(FPS10)
T4FE0 003:995.200 - 0.007ms returns 0x00000000
T4FE0 003:995.209 JLINK_ReadReg(FPS11)
T4FE0 003:995.218 - 0.008ms returns 0x00000000
T4FE0 003:995.228 JLINK_ReadReg(FPS12)
T4FE0 003:995.235 - 0.007ms returns 0x00000000
T4FE0 003:995.245 JLINK_ReadReg(FPS13)
T4FE0 003:995.252 - 0.007ms returns 0x00000000
T4FE0 003:995.262 JLINK_ReadReg(FPS14)
T4FE0 003:995.269 - 0.006ms returns 0x00000000
T4FE0 003:995.278 JLINK_ReadReg(FPS15)
T4FE0 003:995.285 - 0.006ms returns 0x00000000
T4FE0 003:995.294 JLINK_ReadReg(FPS16)
T4FE0 003:995.409 - 0.114ms returns 0x00000000
T4FE0 003:995.436 JLINK_ReadReg(FPS17)
T4FE0 003:995.443 - 0.007ms returns 0x00000000
T4FE0 003:995.466 JLINK_ReadReg(FPS18)
T4FE0 003:995.473 - 0.007ms returns 0x00000000
T4FE0 003:995.506 JLINK_ReadReg(FPS19)
T4FE0 003:995.548 - 0.041ms returns 0x00000000
T4FE0 003:995.572 JLINK_ReadReg(FPS20)
T4FE0 003:995.592 - 0.020ms returns 0x00000000
T4FE0 003:995.602 JLINK_ReadReg(FPS21)
T4FE0 003:995.609 - 0.006ms returns 0x00000000
T4FE0 003:995.618 JLINK_ReadReg(FPS22)
T4FE0 003:995.625 - 0.006ms returns 0x00000000
T4FE0 003:995.634 JLINK_ReadReg(FPS23)
T4FE0 003:995.641 - 0.006ms returns 0x00000000
T4FE0 003:995.651 JLINK_ReadReg(FPS24)
T4FE0 003:995.658 - 0.006ms returns 0x00000000
T4FE0 003:995.668 JLINK_ReadReg(FPS25)
T4FE0 003:995.676 - 0.006ms returns 0x00000000
T4FE0 003:995.686 JLINK_ReadReg(FPS26)
T4FE0 003:995.693 - 0.006ms returns 0x00000000
T4FE0 003:995.704 JLINK_ReadReg(FPS27)
T4FE0 003:995.710 - 0.006ms returns 0x00000000
T4FE0 003:995.721 JLINK_ReadReg(FPS28)
T4FE0 003:995.728 - 0.006ms returns 0x00000000
T4FE0 003:995.738 JLINK_ReadReg(FPS29)
T4FE0 003:995.745 - 0.007ms returns 0x00000000
T4FE0 003:995.756 JLINK_ReadReg(FPS30)
T4FE0 003:995.762 - 0.006ms returns 0x00000000
T4FE0 003:995.773 JLINK_ReadReg(FPS31)
T4FE0 003:995.780 - 0.006ms returns 0x00000000
T4FE0 004:042.992 JLINK_ReadMemEx(0x20000004, 0x4 Bytes, Flags = 0x02000000)
T4FE0 004:043.028   CPU_ReadMem(64 bytes @ 0x20000000)
T4FE0 004:043.804    -- Updating C cache (64 bytes @ 0x20000000)
T4FE0 004:043.820    -- Read from C cache (4 bytes @ 0x20000004)
T4FE0 004:043.831   Data:  00 00 EA 41
T4FE0 004:043.842 - 0.850ms returns 4 (0x4)
T4FE0 004:044.228 JLINK_ReadMemEx(0x20000004, 0x4 Bytes, Flags = 0x02000000)
T4FE0 004:044.240    -- Read from C cache (4 bytes @ 0x20000004)
T4FE0 004:044.250   Data:  00 00 EA 41
T4FE0 004:044.260 - 0.031ms returns 4 (0x4)
T4FE0 004:044.282 JLINK_ReadMemEx(0x20000004, 0x4 Bytes, Flags = 0x02000000)
T4FE0 004:044.290    -- Read from C cache (4 bytes @ 0x20000004)
T4FE0 004:044.300   Data:  00 00 EA 41
T4FE0 004:044.310 - 0.028ms returns 4 (0x4)
T4FE0 004:059.740 JLINK_ReadMemEx(0x20000008, 0x4 Bytes, Flags = 0x02000000)
T4FE0 004:059.768    -- Read from C cache (4 bytes @ 0x20000008)
T4FE0 004:059.779   Data:  00 00 00 00
T4FE0 004:059.790 - 0.051ms returns 4 (0x4)
T4FE0 004:060.086 JLINK_ReadMemEx(0x20000008, 0x4 Bytes, Flags = 0x02000000)
T4FE0 004:060.096    -- Read from C cache (4 bytes @ 0x20000008)
T4FE0 004:060.106   Data:  00 00 00 00
T4FE0 004:060.116 - 0.029ms returns 4 (0x4)
T4FE0 004:060.136 JLINK_ReadMemEx(0x20000008, 0x4 Bytes, Flags = 0x02000000)
T4FE0 004:060.144    -- Read from C cache (4 bytes @ 0x20000008)
T4FE0 004:060.154   Data:  00 00 00 00
T4FE0 004:060.164 - 0.028ms returns 4 (0x4)
T4FE0 004:069.648 JLINK_ReadMemEx(0x2000000C, 0x4 Bytes, Flags = 0x02000000)
T4FE0 004:069.676    -- Read from C cache (4 bytes @ 0x2000000C)
T4FE0 004:069.687   Data:  32 D4 8E BC
T4FE0 004:069.697 - 0.050ms returns 4 (0x4)
T4FE0 004:069.990 JLINK_ReadMemEx(0x2000000C, 0x4 Bytes, Flags = 0x02000000)
T4FE0 004:069.999    -- Read from C cache (4 bytes @ 0x2000000C)
T4FE0 004:070.009   Data:  32 D4 8E BC
T4FE0 004:070.019 - 0.029ms returns 4 (0x4)
T4FE0 004:070.040 JLINK_ReadMemEx(0x2000000C, 0x4 Bytes, Flags = 0x02000000)
T4FE0 004:070.048    -- Read from C cache (4 bytes @ 0x2000000C)
T4FE0 004:070.058   Data:  32 D4 8E BC
T4FE0 004:070.068 - 0.027ms returns 4 (0x4)
T4FE0 004:077.157 JLINK_ReadMemEx(0x200001C0, 0x4 Bytes, Flags = 0x02000000)
T4FE0 004:077.184   CPU_ReadMem(64 bytes @ 0x200001C0)
T4FE0 004:078.157    -- Updating C cache (64 bytes @ 0x200001C0)
T4FE0 004:078.185    -- Read from C cache (4 bytes @ 0x200001C0)
T4FE0 004:078.219   Data:  00 00 00 00
T4FE0 004:078.234 - 1.077ms returns 4 (0x4)
T4FE0 004:078.686 JLINK_ReadMemEx(0x200001C0, 0x4 Bytes, Flags = 0x02000000)
T4FE0 004:078.699    -- Read from C cache (4 bytes @ 0x200001C0)
T4FE0 004:078.716   Data:  00 00 00 00
T4FE0 004:078.734 - 0.048ms returns 4 (0x4)
T4FE0 004:078.824 JLINK_ReadMemEx(0x200001C0, 0x4 Bytes, Flags = 0x02000000)
T4FE0 004:078.848    -- Read from C cache (4 bytes @ 0x200001C0)
T4FE0 004:078.887   Data:  00 00 00 00
T4FE0 004:078.912 - 0.088ms returns 4 (0x4)
T4C1C 004:202.540 JLINK_ReadMemEx(0x0800032C, 0x2 Bytes, Flags = 0x02000000)
T4C1C 004:202.568    -- Read from flash cache (2 bytes @ 0x0800032C)
T4C1C 004:202.579   Data:  09 48
T4C1C 004:202.590 - 0.050ms returns 2 (0x2)
T4C1C 004:202.600 JLINK_HasError()
T4C1C 004:202.610 JLINK_SetBPEx(Addr = 0x080082F4, Type = 0xFFFFFFF2)
T4C1C 004:202.621 - 0.011ms returns 0x00000001
T4C1C 004:202.631 JLINK_HasError()
T4C1C 004:202.640 JLINK_SetBPEx(Addr = 0x080082BC, Type = 0xFFFFFFF2)
T4C1C 004:202.647 - 0.008ms returns 0x00000002
T4C1C 004:202.656 JLINK_HasError()
T4C1C 004:202.665 JLINK_SetBPEx(Addr = 0x080082E0, Type = 0xFFFFFFF2)
T4C1C 004:202.673 - 0.007ms returns 0x00000003
T4C1C 004:202.681 JLINK_HasError()
T4C1C 004:202.690 JLINK_HasError()
T4C1C 004:202.700 JLINK_ReadMemU32(0xE0001004, 0x1 Items)
T4C1C 004:202.712   Data:  00 00 00 00
T4C1C 004:202.722   Debug reg: DWT_CYCCNT
T4C1C 004:202.732 - 0.032ms returns 1 (0x1)
T4C1C 004:202.741 JLINK_WriteU32_64(0xE0001004, 0x000003FF)
T4C1C 004:202.748   Debug reg: DWT_CYCCNT
T4C1C 004:202.763 - 0.021ms returns 0 (0x00000000)
T4C1C 004:202.773 JLINK_WriteU32_64(0xE0001000, 0x00410A1F)
T4C1C 004:202.779   Debug reg: DWT_CTRL
T4C1C 004:202.791   CPU_WriteMem(4 bytes @ 0xE0001000)
T4C1C 004:203.302 - 0.529ms returns 0 (0x00000000)
T4C1C 004:203.319 JLINK_WriteU32_64(0xE0000E80, 0x0001000F)
T4C1C 004:203.326   Debug reg: ITM_TCR
T4C1C 004:203.341 - 0.022ms returns 0 (0x00000000)
T4C1C 004:203.357 JLINK_SWO_Control(JLINKARM_SWO_CMD_GET_NUM_BYTES, ...)
T4C1C 004:203.365 - 0.007ms returns 0x00
T4C1C 004:203.374 JLINK_Go()
T4C1C 004:203.385   CPU_WriteMem(4 bytes @ 0xE0002000)
T4C1C 004:203.862   CPU_WriteMem(4 bytes @ 0xE0002000)
T4C1C 004:204.354   CPU_WriteMem(4 bytes @ 0xE0002000)
T4C1C 004:204.842   CPU_ReadMem(4 bytes @ 0xE0001000)
T4C1C 004:205.315   CPU_WriteMem(4 bytes @ 0xE0000E80)
T4C1C 004:205.346   CPU_WriteMem(4 bytes @ 0xE0001008)
T4C1C 004:205.357   CPU_WriteMem(4 bytes @ 0xE000100C)
T4C1C 004:205.367   CPU_WriteMem(4 bytes @ 0xE0001010)
T4C1C 004:205.377   CPU_WriteMem(4 bytes @ 0xE0001014)
T4C1C 004:205.388   CPU_WriteMem(4 bytes @ 0xE0001018)
T4C1C 004:205.398   CPU_WriteMem(4 bytes @ 0xE0002008)
T4C1C 004:205.408   CPU_WriteMem(4 bytes @ 0xE000200C)
T4C1C 004:205.419   CPU_WriteMem(4 bytes @ 0xE0002010)
T4C1C 004:205.429   CPU_WriteMem(4 bytes @ 0xE0002014)
T4C1C 004:205.441   CPU_WriteMem(4 bytes @ 0xE0002018)
T4C1C 004:205.451   CPU_WriteMem(4 bytes @ 0xE000201C)
T4C1C 004:209.044   CPU_WriteMem(4 bytes @ 0xE0001004)
T4C1C 004:209.994   Memory map 'after startup completion point' is active
T4C1C 004:210.013 - 6.638ms
T4C1C 004:210.043 JLINK_WriteU32_64(0xE0001000, 0x00010A1F)
T4C1C 004:210.051   Debug reg: DWT_CTRL
T4C1C 004:210.068   CPU is running
T4C1C 004:210.082   CPU_WriteMem(4 bytes @ 0xE0001000)
T4C1C 004:210.495 - 0.452ms returns 0 (0x00000000)
T4C1C 004:310.589 JLINK_SWO_Read(..., Offset = 0x00, NumBytes = 0x400000)
T4C1C 004:310.621   Data: 
T4C1C 004:310.633 - 0.043ms returns NumBytesRead = 0x00
T4C1C 004:310.643 JLINK_SWO_Control(JLINKARM_SWO_CMD_FLUSH, ...)
T4C1C 004:310.666 - 0.022ms returns 0x00
T4C1C 004:310.690 JLINK_HasError()
T4C1C 004:310.701 JLINK_IsHalted()
T4C1C 004:313.076 - 2.374ms returns TRUE
T4C1C 004:313.094 JLINK_HasError()
T4C1C 004:313.104 JLINK_Halt()
T4C1C 004:313.126 - 0.022ms returns 0x00
T4C1C 004:313.137 JLINK_IsHalted()
T4C1C 004:313.144 - 0.007ms returns TRUE
T4C1C 004:313.154 JLINK_IsHalted()
T4C1C 004:313.161 - 0.006ms returns TRUE
T4C1C 004:313.171 JLINK_IsHalted()
T4C1C 004:313.178 - 0.006ms returns TRUE
T4C1C 004:313.203 JLINK_HasError()
T4C1C 004:313.569 JLINK_ReadReg(R15 (PC))
T4C1C 004:313.587 - 0.017ms returns 0x080082F4
T4C1C 004:313.597 JLINK_ReadReg(XPSR)
T4C1C 004:313.605 - 0.007ms returns 0x61000000
T4C1C 004:313.621 JLINK_SWO_Read(..., Offset = 0x00, NumBytes = 0x400000)
T4C1C 004:313.628   Data: 
T4C1C 004:313.638 - 0.017ms returns NumBytesRead = 0x00
T4C1C 004:313.647 JLINK_SWO_Control(JLINKARM_SWO_CMD_FLUSH, ...)
T4C1C 004:313.653 - 0.007ms returns 0x00
T4C1C 004:313.664 JLINK_HasError()
T4C1C 004:313.673 JLINK_ClrBPEx(BPHandle = 0x00000001)
T4C1C 004:313.681 - 0.008ms returns 0x00
T4C1C 004:313.690 JLINK_HasError()
T4C1C 004:313.699 JLINK_ClrBPEx(BPHandle = 0x00000002)
T4C1C 004:313.707 - 0.007ms returns 0x00
T4C1C 004:313.715 JLINK_HasError()
T4C1C 004:313.724 JLINK_ClrBPEx(BPHandle = 0x00000003)
T4C1C 004:313.731 - 0.007ms returns 0x00
T4C1C 004:313.740 JLINK_HasError()
T4C1C 004:313.749 JLINK_HasError()
T4C1C 004:313.758 JLINK_ReadMemU32(0xE000ED30, 0x1 Items)
T4C1C 004:313.771   CPU_ReadMem(4 bytes @ 0xE000ED30)
T4C1C 004:314.268   Data:  03 00 00 00
T4C1C 004:314.283 - 0.525ms returns 1 (0x1)
T4C1C 004:314.295 JLINK_ReadMemU32(0xE0001028, 0x1 Items)
T4C1C 004:314.306   CPU_ReadMem(4 bytes @ 0xE0001028)
T4C1C 004:314.751   Data:  00 00 00 00
T4C1C 004:314.766   Debug reg: DWT_FUNC[0]
T4C1C 004:314.777 - 0.481ms returns 1 (0x1)
T4C1C 004:314.788 JLINK_ReadMemU32(0xE0001038, 0x1 Items)
T4C1C 004:314.799   CPU_ReadMem(4 bytes @ 0xE0001038)
T4C1C 004:315.263   Data:  00 02 00 00
T4C1C 004:315.278   Debug reg: DWT_FUNC[1]
T4C1C 004:315.288 - 0.500ms returns 1 (0x1)
T4C1C 004:315.300 JLINK_ReadMemU32(0xE0001048, 0x1 Items)
T4C1C 004:315.311   CPU_ReadMem(4 bytes @ 0xE0001048)
T4C1C 004:315.816   Data:  00 00 00 00
T4C1C 004:315.847   Debug reg: DWT_FUNC[2]
T4C1C 004:315.858 - 0.558ms returns 1 (0x1)
T4C1C 004:315.872 JLINK_ReadMemU32(0xE0001058, 0x1 Items)
T4C1C 004:315.885   CPU_ReadMem(4 bytes @ 0xE0001058)
T4C1C 004:316.300   Data:  00 00 00 00
T4C1C 004:316.322   Debug reg: DWT_FUNC[3]
T4C1C 004:316.338 - 0.466ms returns 1 (0x1)
T4C1C 004:316.642 JLINK_HasError()
T4C1C 004:316.672 JLINK_ReadReg(R0)
T4C1C 004:316.709 - 0.037ms returns 0x20007BD0
T4C1C 004:316.719 JLINK_ReadReg(R1)
T4C1C 004:316.728 - 0.008ms returns 0x20007DD0
T4C1C 004:316.737 JLINK_ReadReg(R2)
T4C1C 004:316.745 - 0.007ms returns 0x20007DD0
T4C1C 004:316.755 JLINK_ReadReg(R3)
T4C1C 004:316.771 - 0.015ms returns 0x20007DD0
T4C1C 004:316.786 JLINK_ReadReg(R4)
T4C1C 004:316.803 - 0.016ms returns 0x00000000
T4C1C 004:316.821 JLINK_ReadReg(R5)
T4C1C 004:316.830 - 0.009ms returns 0x20007B6C
T4C1C 004:316.839 JLINK_ReadReg(R6)
T4C1C 004:316.847 - 0.007ms returns 0x00000000
T4C1C 004:316.864 JLINK_ReadReg(R7)
T4C1C 004:316.876 - 0.013ms returns 0x00000000
T4C1C 004:316.886 JLINK_ReadReg(R8)
T4C1C 004:316.894 - 0.007ms returns 0x00000000
T4C1C 004:316.903 JLINK_ReadReg(R9)
T4C1C 004:316.911 - 0.007ms returns 0x00000000
T4C1C 004:316.921 JLINK_ReadReg(R10)
T4C1C 004:316.929 - 0.007ms returns 0x08009F38
T4C1C 004:316.937 JLINK_ReadReg(R11)
T4C1C 004:316.945 - 0.007ms returns 0x00000000
T4C1C 004:316.955 JLINK_ReadReg(R12)
T4C1C 004:316.963 - 0.008ms returns 0x00000000
T4C1C 004:316.981 JLINK_ReadReg(R13 (SP))
T4C1C 004:316.992 - 0.011ms returns 0x200081D0
T4C1C 004:317.002 JLINK_ReadReg(R14)
T4C1C 004:317.010 - 0.007ms returns 0x0800025B
T4C1C 004:317.019 JLINK_ReadReg(R15 (PC))
T4C1C 004:317.036 - 0.016ms returns 0x080082F4
T4C1C 004:317.049 JLINK_ReadReg(XPSR)
T4C1C 004:317.058 - 0.008ms returns 0x61000000
T4C1C 004:317.067 JLINK_ReadReg(MSP)
T4C1C 004:317.075 - 0.007ms returns 0x200081D0
T4C1C 004:317.085 JLINK_ReadReg(PSP)
T4C1C 004:317.093 - 0.007ms returns 0x00000000
T4C1C 004:317.101 JLINK_ReadReg(CFBP)
T4C1C 004:317.109 - 0.007ms returns 0x04000000
T4C1C 004:317.119 JLINK_ReadReg(FPSCR)
T4C1C 004:320.563 - 3.444ms returns 0x03000000
T4C1C 004:320.583 JLINK_ReadReg(FPS0)
T4C1C 004:320.593 - 0.010ms returns 0x00000000
T4C1C 004:321.003 JLINK_ReadReg(FPS1)
T4C1C 004:321.019 - 0.015ms returns 0x00000000
T4C1C 004:321.029 JLINK_ReadReg(FPS2)
T4C1C 004:321.038 - 0.008ms returns 0x00000000
T4C1C 004:321.047 JLINK_ReadReg(FPS3)
T4C1C 004:321.055 - 0.008ms returns 0x00000000
T4C1C 004:321.070 JLINK_ReadReg(FPS4)
T4C1C 004:321.078 - 0.008ms returns 0x00000000
T4C1C 004:321.087 JLINK_ReadReg(FPS5)
T4C1C 004:321.095 - 0.007ms returns 0x00000000
T4C1C 004:321.105 JLINK_ReadReg(FPS6)
T4C1C 004:321.115 - 0.010ms returns 0x00000000
T4C1C 004:321.125 JLINK_ReadReg(FPS7)
T4C1C 004:321.147 - 0.022ms returns 0x00000000
T4C1C 004:321.171 JLINK_ReadReg(FPS8)
T4C1C 004:321.179 - 0.008ms returns 0x00000000
T4C1C 004:321.188 JLINK_ReadReg(FPS9)
T4C1C 004:321.196 - 0.007ms returns 0x00000000
T4C1C 004:321.205 JLINK_ReadReg(FPS10)
T4C1C 004:321.213 - 0.007ms returns 0x00000000
T4C1C 004:321.223 JLINK_ReadReg(FPS11)
T4C1C 004:321.230 - 0.007ms returns 0x00000000
T4C1C 004:321.257 JLINK_ReadReg(FPS12)
T4C1C 004:321.265 - 0.025ms returns 0x00000000
T4C1C 004:321.288 JLINK_ReadReg(FPS13)
T4C1C 004:321.296 - 0.007ms returns 0x00000000
T4C1C 004:321.305 JLINK_ReadReg(FPS14)
T4C1C 004:321.312 - 0.007ms returns 0x00000000
T4C1C 004:321.321 JLINK_ReadReg(FPS15)
T4C1C 004:321.345 - 0.023ms returns 0x00000000
T4C1C 004:321.354 JLINK_ReadReg(FPS16)
T4C1C 004:321.375 - 0.021ms returns 0x00000000
T4C1C 004:321.384 JLINK_ReadReg(FPS17)
T4C1C 004:321.392 - 0.007ms returns 0x00000000
T4C1C 004:321.401 JLINK_ReadReg(FPS18)
T4C1C 004:321.409 - 0.007ms returns 0x00000000
T4C1C 004:321.417 JLINK_ReadReg(FPS19)
T4C1C 004:321.425 - 0.007ms returns 0x00000000
T4C1C 004:321.434 JLINK_ReadReg(FPS20)
T4C1C 004:321.442 - 0.007ms returns 0x00000000
T4C1C 004:321.464 JLINK_ReadReg(FPS21)
T4C1C 004:321.471 - 0.007ms returns 0x00000000
T4C1C 004:321.480 JLINK_ReadReg(FPS22)
T4C1C 004:321.487 - 0.007ms returns 0x00000000
T4C1C 004:321.496 JLINK_ReadReg(FPS23)
T4C1C 004:321.504 - 0.007ms returns 0x00000000
T4C1C 004:321.513 JLINK_ReadReg(FPS24)
T4C1C 004:321.520 - 0.007ms returns 0x00000000
T4C1C 004:321.529 JLINK_ReadReg(FPS25)
T4C1C 004:321.536 - 0.007ms returns 0x00000000
T4C1C 004:321.545 JLINK_ReadReg(FPS26)
T4C1C 004:321.552 - 0.007ms returns 0x00000000
T4C1C 004:321.561 JLINK_ReadReg(FPS27)
T4C1C 004:321.569 - 0.007ms returns 0x00000000
T4C1C 004:321.577 JLINK_ReadReg(FPS28)
T4C1C 004:321.585 - 0.007ms returns 0x00000000
T4C1C 004:321.593 JLINK_ReadReg(FPS29)
T4C1C 004:321.601 - 0.007ms returns 0x00000000
T4C1C 004:321.610 JLINK_ReadReg(FPS30)
T4C1C 004:321.617 - 0.007ms returns 0x00000000
T4C1C 004:321.626 JLINK_ReadReg(FPS31)
T4C1C 004:321.633 - 0.007ms returns 0x00000000
T4C1C 004:321.646 JLINK_ReadMemEx(0x200001EC, 0x4 Bytes, Flags = 0x02000000)
T4C1C 004:321.659   CPU_ReadMem(64 bytes @ 0x200001C0)
T4C1C 004:322.537    -- Updating C cache (64 bytes @ 0x200001C0)
T4C1C 004:322.554    -- Read from C cache (4 bytes @ 0x200001EC)
T4C1C 004:322.565   Data:  00 00 00 00
T4C1C 004:322.575 - 0.929ms returns 4 (0x4)
T4FE0 004:322.963 JLINK_ReadMemEx(0x20000004, 0x4 Bytes, Flags = 0x02000000)
T4FE0 004:322.981   CPU_ReadMem(64 bytes @ 0x20000000)
T4FE0 004:323.819    -- Updating C cache (64 bytes @ 0x20000000)
T4FE0 004:323.836    -- Read from C cache (4 bytes @ 0x20000004)
T4FE0 004:323.846   Data:  00 00 00 00
T4FE0 004:323.857 - 0.894ms returns 4 (0x4)
T4FE0 004:324.695 JLINK_ReadMemEx(0x20000008, 0x4 Bytes, Flags = 0x02000000)
T4FE0 004:324.709    -- Read from C cache (4 bytes @ 0x20000008)
T4FE0 004:324.721   Data:  00 00 00 00
T4FE0 004:324.731 - 0.036ms returns 4 (0x4)
T4FE0 004:324.747 JLINK_ReadMemEx(0x2000000C, 0x4 Bytes, Flags = 0x02000000)
T4FE0 004:324.756    -- Read from C cache (4 bytes @ 0x2000000C)
T4FE0 004:324.766   Data:  00 00 00 00
T4FE0 004:324.777 - 0.029ms returns 4 (0x4)
T4FE0 004:325.024 JLINK_ReadMemEx(0x200001C0, 0x4 Bytes, Flags = 0x02000000)
T4FE0 004:325.037    -- Read from C cache (4 bytes @ 0x200001C0)
T4FE0 004:325.048   Data:  00 00 00 00
T4FE0 004:325.058 - 0.034ms returns 4 (0x4)
T4FE0 004:326.263 JLINK_ReadMemEx(0x40011000, 0x18 Bytes, Flags = 0x02000004)
T4FE0 004:326.279   CPU_ReadMem(24 bytes @ 0x40011000)
T4FE0 004:326.961   Data:  00 00 00 00 00 00 00 00 00 00 00 00 00 00 00 00 ...
T4FE0 004:326.979 - 0.716ms returns 24 (0x18)
T4FE0 004:326.991 JLINK_ReadMemEx(0x40011018, 0x4 Bytes, Flags = 0x02000004)
T4FE0 004:327.002   CPU_ReadMem(4 bytes @ 0x40011018)
T4FE0 004:327.551   Data:  00 00 00 00
T4FE0 004:327.566 - 0.575ms returns 4 (0x4)
T4FE0 005:535.411 JLINK_HasError()
T4FE0 005:535.440 JLINK_SetResetType(JLINKARM_CM3_RESET_TYPE_NORMAL)
T4FE0 005:535.448 - 0.008ms returns JLINKARM_CM3_RESET_TYPE_NORMAL
T4FE0 005:535.457 JLINK_Reset()
T4FE0 005:535.484   Memory map 'before startup completion point' is active
T4FE0 005:535.498   CPU_WriteMem(4 bytes @ 0xE000EDF0)
T4FE0 005:535.921   CPU_WriteMem(4 bytes @ 0xE000EDFC)
T4FE0 005:536.420   Reset: Halt core after reset via DEMCR.VC_CORERESET.
T4FE0 005:536.957   Reset: Reset device via AIRCR.SYSRESETREQ.
T4FE0 005:536.972   CPU_WriteMem(4 bytes @ 0xE000ED0C)
T4FE0 005:590.980   CPU_ReadMem(4 bytes @ 0xE000EDF0)
T4FE0 005:591.568   CPU_ReadMem(4 bytes @ 0xE000EDF0)
T4FE0 005:592.382   CPU_WriteMem(4 bytes @ 0xE000EDFC)
T4FE0 005:598.863   CPU_ReadMem(4 bytes @ 0xE000EDF0)
T4FE0 005:602.029   CPU_WriteMem(4 bytes @ 0xE0002000)
T4FE0 005:602.437   CPU_ReadMem(4 bytes @ 0xE000EDFC)
T4FE0 005:602.825   CPU_ReadMem(4 bytes @ 0xE0001000)
T4FE0 005:603.255 - 67.796ms
T4FE0 005:603.275 JLINK_WriteU32_64(0xE000EDFC, 0x01000000)
T4FE0 005:603.284   Debug reg: DEMCR
T4FE0 005:603.303   CPU_WriteMem(4 bytes @ 0xE000EDFC)
T4FE0 005:603.699 - 0.423ms returns 0 (0x00000000)
T4FE0 005:604.034 JLINK_HasError()
T4FE0 005:604.050 JLINK_ReadReg(R15 (PC))
T4FE0 005:604.061 - 0.010ms returns 0x0800032C
T4FE0 005:604.070 JLINK_ReadReg(XPSR)
T4FE0 005:604.078 - 0.007ms returns 0x01000000
T4FE0 005:611.627 JLINK_ReadMemEx(0x40011000, 0x18 Bytes, Flags = 0x02000004)
